name,type,start_time,duration,"data","error"
"U13C_USART1_RX","data",7.829166,0.00008225,0xD5,
"U13C_USART1_RX","data",7.82925275,0.00008225,0xE5,
"U13C_USART1_RX","data",7.8293395,0.00008225,0x00,
"U13C_USART1_RX","data",7.82942625,0.00008225,0x00,
"U13C_USART1_RX","data",7.829513,0.00008225,0x04,
"U13C_USART1_RX","data",7.8295995,0.00008225,0x00,
"U13C_USART1_RX","data",7.82968625,0.00008225,0x04,
"U13C_USART1_RX","data",7.829773,0.00008225,0x00,
"U13C_USART1_RX","data",7.82985975,0.00008225,0x00,
"U13C_USART1_RX","data",7.8299465,0.00008225,0x00,
"U13C_USART1_RX","data",7.830033,0.00008225,0x00,
"U13C_USART1_RX","data",7.84065925,0.00008225,0xD5,
"U13C_USART1_RX","data",7.840746,0.00008225,0xE5,
"U13C_USART1_RX","data",7.84083275,0.00008225,0x00,
"U13C_USART1_RX","data",7.8409195,0.00008225,0x00,
"U13C_USART1_RX","data",7.84100625,0.00008225,0x00,
"U13C_USART1_RX","data",7.84109275,0.00008225,0x00,
"U13C_USART1_RX","data",7.8411795,0.00008225,0x00,
"U13C_USART1_RX","data",7.84126625,0.00008225,0x00,
"U13C_USART1_RX","data",7.841353,0.00008225,0x00,
"U13C_USART1_RX","data",7.84143975,0.00008225,0x00,
"U13C_USART1_RX","data",7.84152625,0.00008225,0x00,
"U13C_USART1_TX","data",7.8416545,0.00008225,0xD5,
"U13C_USART1_TX","data",7.84176675,0.00008225,0xE5,
"U13C_USART1_TX","data",7.84185425,0.00008225,0x00,
"U13C_USART1_TX","data",7.841954,0.00008225,0x00,
"U13C_USART1_TX","data",7.84204175,0.00008225,0x0B,
"U13C_USART1_TX","data",7.84214575,0.00008225,0x00,
"U13C_USART1_TX","data",7.8422335,0.00008225,0x0D,
"U13C_USART1_TX","data",7.84232875,0.00008225,0x00,
"U13C_USART1_TX","data",7.8424165,0.00008225,0x00,
"U13C_USART1_TX","data",7.84251625,0.00008225,0x00,
"U13C_USART1_TX","data",7.842604,0.00008225,0x02,
"U13C_USART1_RX","data",7.8545375,0.00008225,0xD5,
"U13C_USART1_RX","data",7.854624,0.00008225,0xE5,
"U13C_USART1_RX","data",7.85471075,0.00008225,0x00,
"U13C_USART1_RX","data",7.8547975,0.00008225,0x00,
"U13C_USART1_RX","data",7.85488425,0.00008225,0x01,
"U13C_USART1_RX","data",7.854971,0.00008225,0x00,
"U13C_USART1_RX","data",7.8550575,0.00008225,0x01,
"U13C_USART1_RX","data",7.85514425,0.00008225,0x00,
"U13C_USART1_RX","data",7.855231,0.00008225,0x00,
"U13C_USART1_RX","data",7.85531775,0.00008225,0x00,
"U13C_USART1_RX","data",7.8554045,0.00008225,0x00,
"U13C_USART1_TX","data",7.8555315,0.00008225,0xD5,
"U13C_USART1_TX","data",7.85563975,0.00008225,0xE5,
"U13C_USART1_TX","data",7.8557275,0.00008225,0x00,
"U13C_USART1_TX","data",7.85582725,0.00008225,0x00,
"U13C_USART1_TX","data",7.85591475,0.00008225,0x0B,
"U13C_USART1_TX","data",7.8560145,0.00008225,0x00,
"U13C_USART1_TX","data",7.85610225,0.00008225,0x0D,
"U13C_USART1_TX","data",7.856202,0.00008225,0x00,
"U13C_USART1_TX","data",7.85628975,0.00008225,0x00,
"U13C_USART1_TX","data",7.85638925,0.00008225,0x00,
"U13C_USART1_TX","data",7.856477,0.00008225,0x02,
"U13C_USART1_RX","data",7.94826825,0.00008225,0xD5,
"U13C_USART1_RX","data",7.948355,0.00008225,0xE5,
"U13C_USART1_RX","data",7.94844175,0.00008225,0x00,
"U13C_USART1_RX","data",7.94852825,0.00008225,0x00,
"U13C_USART1_RX","data",7.948615,0.00008225,0x02,
"U13C_USART1_RX","data",7.94870175,0.00008225,0x00,
"U13C_USART1_RX","data",7.9487885,0.00008225,0x4F,
"U13C_USART1_RX","data",7.94887525,0.00008225,0x09,
"U13C_USART1_RX","data",7.94896175,0.00008225,0x00,
"U13C_USART1_RX","data",7.9490485,0.00008225,0xC4,
"U13C_USART1_RX","data",7.94913525,0.00008225,0x00,
"U13C_USART1_TX","data",7.9492685,0.00008225,0xD5,
"U13C_USART1_TX","data",7.9493715,0.00008225,0xE5,
"U13C_USART1_TX","data",7.94945925,0.00008225,0x00,
"U13C_USART1_TX","data",7.94955825,0.00008225,0x00,
"U13C_USART1_TX","data",7.949646,0.00008225,0x02,
"U13C_USART1_TX","data",7.94974575,0.00008225,0x00,
"U13C_USART1_TX","data",7.9498335,0.00008225,0x04,
"U13C_USART1_TX","data",7.9499335,0.00008225,0x00,
"U13C_USART1_TX","data",7.95002125,0.00008225,0x00,
"U13C_USART1_TX","data",7.95014525,0.00008225,0x00,
"U13C_USART1_TX","data",7.950246,0.00008225,0x02,
"U13C_USART1_RX","data",8.10833,0.00008225,0xD5,
"U13C_USART1_RX","data",8.1084165,0.00008225,0xE5,
"U13C_USART1_RX","data",8.10850325,0.00008225,0x00,
"U13C_USART1_RX","data",8.10859,0.00008225,0x00,
"U13C_USART1_RX","data",8.10867675,0.00008225,0x02,
"U13C_USART1_RX","data",8.1087635,0.00008225,0x00,
"U13C_USART1_RX","data",8.10885,0.00008225,0x4F,
"U13C_USART1_RX","data",8.10893675,0.00008225,0x09,
"U13C_USART1_RX","data",8.1090235,0.00008225,0x00,
"U13C_USART1_RX","data",8.10911025,0.00008225,0xC4,
"U13C_USART1_RX","data",8.109197,0.00008225,0x00,
"U13C_USART1_TX","data",8.1093105,0.00008225,0xD5,
"U13C_USART1_TX","data",8.10941325,0.00008225,0xE5,
"U13C_USART1_TX","data",8.109501,0.00008225,0x00,
"U13C_USART1_TX","data",8.10960075,0.00008225,0x00,
"U13C_USART1_TX","data",8.1096885,0.00008225,0x02,
"U13C_USART1_TX","data",8.109788,0.00008225,0x0A,
"U13C_USART1_TX","data",8.10987575,0.00008225,0x0E,
"U13C_USART1_TX","data",8.109976,0.00008225,0x00,
"U13C_USART1_TX","data",8.11006375,0.00008225,0x00,
"U13C_USART1_TX","data",8.110164,0.00008225,0x00,
"U13C_USART1_TX","data",8.11025175,0.00008225,0x02,
"U13C_USART1_RX","data",8.26839175,0.00008225,0xD5,
"U13C_USART1_RX","data",8.2684785,0.00008225,0xE5,
"U13C_USART1_RX","data",8.26856525,0.00008225,0x00,
"U13C_USART1_RX","data",8.268652,0.00008225,0x00,
"U13C_USART1_RX","data",8.2687385,0.00008225,0x02,
"U13C_USART1_RX","data",8.26882525,0.00008225,0x00,
"U13C_USART1_RX","data",8.268912,0.00008225,0x4F,
"U13C_USART1_RX","data",8.26899875,0.00008225,0x09,
"U13C_USART1_RX","data",8.2690855,0.00008225,0x00,
"U13C_USART1_RX","data",8.269172,0.00008225,0xC4,
"U13C_USART1_RX","data",8.26925875,0.00008225,0x00,
"U13C_USART1_TX","data",8.26936425,0.00008225,0xD5,
"U13C_USART1_TX","data",8.2694525,0.00008225,0xE5,
"U13C_USART1_TX","data",8.26954025,0.00008225,0x00,
"U13C_USART1_TX","data",8.26964,0.00008225,0x00,
"U13C_USART1_TX","data",8.269727,0.00008225,0x02,
"U13C_USART1_TX","data",8.26982725,0.00008225,0x0A,
"U13C_USART1_TX","data",8.269915,0.00008225,0x0E,
"U13C_USART1_TX","data",8.27001525,0.00008225,0x00,
"U13C_USART1_TX","data",8.2701025,0.00008225,0x00,
"U13C_USART1_TX","data",8.27020275,0.00008225,0x00,
"U13C_USART1_TX","data",8.2702905,0.00008225,0x02,
"U13C_USART1_RX","data",8.428453,0.00008225,0xD5,
"U13C_USART1_RX","data",8.4285395,0.00008225,0xE5,
"U13C_USART1_RX","data",8.42862625,0.00008225,0x00,
"U13C_USART1_RX","data",8.428713,0.00008225,0x00,
"U13C_USART1_RX","data",8.42879975,0.00008225,0x02,
"U13C_USART1_RX","data",8.4288865,0.00008225,0x00,
"U13C_USART1_RX","data",8.428973,0.00008225,0x4F,
"U13C_USART1_RX","data",8.42905975,0.00008225,0x09,
"U13C_USART1_RX","data",8.4291465,0.00008225,0x00,
"U13C_USART1_RX","data",8.42923325,0.00008225,0xC4,
"U13C_USART1_RX","data",8.42932,0.00008225,0x00,
"U13C_USART1_TX","data",8.429443,0.00008225,0xD5,
"U13C_USART1_TX","data",8.42953075,0.00008225,0xE5,
"U13C_USART1_TX","data",8.42962825,0.00008225,0x00,
"U13C_USART1_TX","data",8.4297155,0.00008225,0x02,
"U13C_USART1_TX","data",8.4298155,0.00008225,0x02,
"U13C_USART1_TX","data",8.42990325,0.00008225,0xDB,
"U13C_USART1_TX","data",8.430003,0.00008225,0x65,
"U13C_USART1_TX","data",8.43009075,0.00008225,0x00,
"U13C_USART1_TX","data",8.430191,0.00008225,0x00,
"U13C_USART1_TX","data",8.43027875,0.00008225,0x04,
"U13C_USART1_TX","data",8.43037775,0.00008225,0x02,
"U13C_USART1_RX","data",8.66054225,0.00008225,0xD5,
"U13C_USART1_RX","data",8.660629,0.00008225,0xE5,
"U13C_USART1_RX","data",8.66071575,0.00008225,0x00,
"U13C_USART1_RX","data",8.6608025,0.00008225,0x00,
"U13C_USART1_RX","data",8.660889,0.00008225,0x02,
"U13C_USART1_RX","data",8.66097575,0.00008225,0x00,
"U13C_USART1_RX","data",8.6610625,0.00008225,0x4F,
"U13C_USART1_RX","data",8.66114925,0.00008225,0x09,
"U13C_USART1_RX","data",8.661236,0.00008225,0x00,
"U13C_USART1_RX","data",8.6613225,0.00008225,0xC4,
"U13C_USART1_RX","data",8.66140925,0.00008225,0x00,
"U13C_USART1_TX","data",8.66151825,0.00008225,0xD5,
"U13C_USART1_TX","data",8.66161375,0.00008225,0xE5,
"U13C_USART1_TX","data",8.6617015,0.00008225,0x00,
"U13C_USART1_TX","data",8.661801,0.00008225,0x04,
"U13C_USART1_TX","data",8.66188875,0.00008225,0x02,
"U13C_USART1_TX","data",8.661989,0.00008225,0xFC,
"U13C_USART1_TX","data",8.66207675,0.00008225,0x1B,
"U13C_USART1_TX","data",8.66217625,0.00008225,0x00,
"U13C_USART1_TX","data",8.662264,0.00008225,0x00,
"U13C_USART1_TX","data",8.66236375,0.00008225,0x17,
"U13C_USART1_TX","data",8.6624515,0.00008225,0x02,
"U13C_USART1_RX","data",8.82060425,0.00008225,0xD5,
"U13C_USART1_RX","data",8.820691,0.00008225,0xE5,
"U13C_USART1_RX","data",8.8207775,0.00008225,0x00,
"U13C_USART1_RX","data",8.82086425,0.00008225,0x00,
"U13C_USART1_RX","data",8.820951,0.00008225,0x02,
"U13C_USART1_RX","data",8.82103775,0.00008225,0x00,
"U13C_USART1_RX","data",8.8211245,0.00008225,0x4F,
"U13C_USART1_RX","data",8.821211,0.00008225,0x09,
"U13C_USART1_RX","data",8.82129775,0.00008225,0x00,
"U13C_USART1_RX","data",8.8213845,0.00008225,0xC4,
"U13C_USART1_RX","data",8.82147125,0.00008225,0x00,
"U13C_USART1_TX","data",8.8215775,0.00008225,0xD5,
"U13C_USART1_TX","data",8.82166525,0.00008225,0xE5,
"U13C_USART1_TX","data",8.821753,0.00008225,0x00,
"U13C_USART1_TX","data",8.82184875,0.00008225,0x06,
"U13C_USART1_TX","data",8.8219365,0.00008225,0x02,
"U13C_USART1_TX","data",8.82204425,0.00008225,0x00,
"U13C_USART1_TX","data",8.822132,0.00008225,0x30,
"U13C_USART1_TX","data",8.8222235,0.00008225,0x00,
"U13C_USART1_TX","data",8.82231125,0.00008225,0x00,
"U13C_USART1_TX","data",8.8224115,0.00008225,0x26,
"U13C_USART1_TX","data",8.82249925,0.00008225,0x02,
"U13C_USART1_RX","data",8.980666,0.00008225,0xD5,
"U13C_USART1_RX","data",8.98075275,0.00008225,0xE5,
"U13C_USART1_RX","data",8.9808395,0.00008225,0x00,
"U13C_USART1_RX","data",8.98092625,0.00008225,0x00,
"U13C_USART1_RX","data",8.98101275,0.00008225,0x02,
"U13C_USART1_RX","data",8.9810995,0.00008225,0x00,
"U13C_USART1_RX","data",8.98118625,0.00008225,0x4F,
"U13C_USART1_RX","data",8.981273,0.00008225,0x09,
"U13C_USART1_RX","data",8.98135975,0.00008225,0x00,
"U13C_USART1_RX","data",8.98144625,0.00008225,0xC4,
"U13C_USART1_RX","data",8.981533,0.00008225,0x00,
"U13C_USART1_TX","data",8.981657,0.00008225,0xD5,
"U13C_USART1_TX","data",8.98174475,0.00008225,0xE5,
"U13C_USART1_TX","data",8.98184325,0.00008225,0x00,
"U13C_USART1_TX","data",8.981931,0.00008225,0x06,
"U13C_USART1_TX","data",8.98203825,0.00008225,0x02,
"U13C_USART1_TX","data",8.982126,0.00008225,0xCB,
"U13C_USART1_TX","data",8.982218,0.00008225,0x7C,
"U13C_USART1_TX","data",8.98230575,0.00008225,0x00,
"U13C_USART1_TX","data",8.982406,0.00008225,0x00,
"U13C_USART1_TX","data",8.98249375,0.00008225,0x27,
"U13C_USART1_TX","data",8.98259275,0.00008225,0x02,
"U13C_USART1_RX","data",9.14072725,0.00008225,0xD5,
"U13C_USART1_RX","data",9.140814,0.00008225,0xE5,
"U13C_USART1_RX","data",9.1409005,0.00008225,0x00,
"U13C_USART1_RX","data",9.14098725,0.00008225,0x00,
"U13C_USART1_RX","data",9.141074,0.00008225,0x02,
"U13C_USART1_RX","data",9.14116075,0.00008225,0x00,
"U13C_USART1_RX","data",9.1412475,0.00008225,0x4F,
"U13C_USART1_RX","data",9.141334,0.00008225,0x09,
"U13C_USART1_RX","data",9.14142075,0.00008225,0x00,
"U13C_USART1_RX","data",9.1415075,0.00008225,0xC4,
"U13C_USART1_RX","data",9.14159425,0.00008225,0x00,
"U13C_USART1_TX","data",9.14171825,0.00008225,0xD5,
"U13C_USART1_TX","data",9.141806,0.00008225,0xE5,
"U13C_USART1_TX","data",9.1418965,0.00008225,0x00,
"U13C_USART1_TX","data",9.14198425,0.00008225,0x07,
"U13C_USART1_TX","data",9.1420845,0.00008225,0x02,
"U13C_USART1_TX","data",9.14217225,0.00008225,0x6D,
"U13C_USART1_TX","data",9.14227125,0.00008225,0x30,
"U13C_USART1_TX","data",9.1423585,0.00008225,0x00,
"U13C_USART1_TX","data",9.14245875,0.00008225,0x00,
"U13C_USART1_TX","data",9.1425465,0.00008225,0x38,
"U13C_USART1_TX","data",9.1426465,0.00008225,0x02,
"U13C_USART1_RX","data",9.300789,0.00008225,0xD5,
"U13C_USART1_RX","data",9.30087575,0.00008225,0xE5,
"U13C_USART1_RX","data",9.3009625,0.00008225,0x00,
"U13C_USART1_RX","data",9.30104925,0.00008225,0x00,
"U13C_USART1_RX","data",9.301136,0.00008225,0x02,
"U13C_USART1_RX","data",9.3012225,0.00008225,0x00,
"U13C_USART1_RX","data",9.30130925,0.00008225,0x4F,
"U13C_USART1_RX","data",9.301396,0.00008225,0x09,
"U13C_USART1_RX","data",9.30148275,0.00008225,0x00,
"U13C_USART1_RX","data",9.3015695,0.00008225,0xC4,
"U13C_USART1_RX","data",9.301656,0.00008225,0x00,
"U13C_USART1_TX","data",9.30176375,0.00008225,0xD5,
"U13C_USART1_TX","data",9.3018515,0.00008225,0xE5,
"U13C_USART1_TX","data",9.301939,0.00008225,0x00,
"U13C_USART1_TX","data",9.30203125,0.00008225,0x07,
"U13C_USART1_TX","data",9.30211825,0.00008225,0x02,
"U13C_USART1_TX","data",9.3022185,0.00008225,0xEA,
"U13C_USART1_TX","data",9.30230625,0.00008225,0x1B,
"U13C_USART1_TX","data",9.30240575,0.00008225,0x00,
"U13C_USART1_TX","data",9.3024935,0.00008225,0x00,
"U13C_USART1_TX","data",9.30259325,0.00008225,0x26,
"U13C_USART1_TX","data",9.30268075,0.00008225,0x02,
"U13C_USART1_RX","data",9.46085025,0.00008225,0xD5,
"U13C_USART1_RX","data",9.460937,0.00008225,0xE5,
"U13C_USART1_RX","data",9.4610235,0.00008225,0x00,
"U13C_USART1_RX","data",9.46111025,0.00008225,0x00,
"U13C_USART1_RX","data",9.461197,0.00008225,0x02,
"U13C_USART1_RX","data",9.46128375,0.00008225,0x00,
"U13C_USART1_RX","data",9.4613705,0.00008225,0x4F,
"U13C_USART1_RX","data",9.461457,0.00008225,0x09,
"U13C_USART1_RX","data",9.46154375,0.00008225,0x00,
"U13C_USART1_RX","data",9.4616305,0.00008225,0xC4,
"U13C_USART1_RX","data",9.46171725,0.00008225,0x00,
"U13C_USART1_TX","data",9.46183875,0.00008225,0xD5,
"U13C_USART1_TX","data",9.4619265,0.00008225,0xE5,
"U13C_USART1_TX","data",9.46201425,0.00008225,0x00,
"U13C_USART1_TX","data",9.462102,0.00008225,0x08,
"U13C_USART1_TX","data",9.462201,0.00008225,0x02,
"U13C_USART1_TX","data",9.46228875,0.00008225,0x12,
"U13C_USART1_TX","data",9.4623885,0.00008225,0x4D,
"U13C_USART1_TX","data",9.46247625,0.00008225,0x00,
"U13C_USART1_TX","data",9.46257575,0.00008225,0x00,
"U13C_USART1_TX","data",9.4626635,0.00008225,0x2F,
"U13C_USART1_TX","data",9.46276325,0.00008225,0x02,
"U13C_USART1_RX","data",9.620912,0.00008225,0xD5,
"U13C_USART1_RX","data",9.62099875,0.00008225,0xE5,
"U13C_USART1_RX","data",9.6210855,0.00008225,0x00,
"U13C_USART1_RX","data",9.62117225,0.00008225,0x00,
"U13C_USART1_RX","data",9.621259,0.00008225,0x02,
"U13C_USART1_RX","data",9.6213455,0.00008225,0x00,
"U13C_USART1_RX","data",9.62143225,0.00008225,0x4F,
"U13C_USART1_RX","data",9.621519,0.00008225,0x09,
"U13C_USART1_RX","data",9.62160575,0.00008225,0x00,
"U13C_USART1_RX","data",9.6216925,0.00008225,0xC4,
"U13C_USART1_RX","data",9.621779,0.00008225,0x00,
"U13C_USART1_TX","data",9.62189125,0.00008225,0xD5,
"U13C_USART1_TX","data",9.62199475,0.00008225,0xE5,
"U13C_USART1_TX","data",9.622082,0.00008225,0x00,
"U13C_USART1_TX","data",9.622182,0.00008225,0x08,
"U13C_USART1_TX","data",9.62226975,0.00008225,0x02,
"U13C_USART1_TX","data",9.6223695,0.00008225,0x9A,
"U13C_USART1_TX","data",9.62245725,0.00008225,0x5B,
"U13C_USART1_TX","data",9.622557,0.00008225,0x00,
"U13C_USART1_TX","data",9.62264475,0.00008225,0x00,
"U13C_USART1_TX","data",9.62274425,0.00008225,0x35,
"U13C_USART1_TX","data",9.622832,0.00008225,0x02,
"U13C_USART1_RX","data",9.78194225,0.00008225,0xD5,
"U13C_USART1_RX","data",9.78202875,0.00008225,0xE5,
"U13C_USART1_RX","data",9.7821155,0.00008225,0x00,
"U13C_USART1_RX","data",9.78220225,0.00008225,0x00,
"U13C_USART1_RX","data",9.782289,0.00008225,0x02,
"U13C_USART1_RX","data",9.78237575,0.00008225,0x00,
"U13C_USART1_RX","data",9.78246225,0.00008225,0x4F,
"U13C_USART1_RX","data",9.782549,0.00008225,0x09,
"U13C_USART1_RX","data",9.78263575,0.00008225,0x00,
"U13C_USART1_RX","data",9.7827225,0.00008225,0xC4,
"U13C_USART1_RX","data",9.78280925,0.00008225,0x00,
"U13C_USART1_TX","data",9.7829405,0.00008225,0xD5,
"U13C_USART1_TX","data",9.78302825,0.00008225,0xE5,
"U13C_USART1_TX","data",9.78311525,0.00008225,0x00,
"U13C_USART1_TX","data",9.783203,0.00008225,0x08,
"U13C_USART1_TX","data",9.7832985,0.00008225,0x02,
"U13C_USART1_TX","data",9.78338625,0.00008225,0xDB,
"U13C_USART1_TX","data",9.78348575,0.00008225,0x10,
"U13C_USART1_TX","data",9.7835735,0.00008225,0x00,
"U13C_USART1_TX","data",9.78367325,0.00008225,0x00,
"U13C_USART1_TX","data",9.783761,0.00008225,0x29,
"U13C_USART1_TX","data",9.78386075,0.00008225,0x02,
"U13C_USART1_RX","data",9.94700825,0.00008225,0xD5,
"U13C_USART1_RX","data",9.947095,0.00008225,0xE5,
"U13C_USART1_RX","data",9.9471815,0.00008225,0x00,
"U13C_USART1_RX","data",9.94726825,0.00008225,0x00,
"U13C_USART1_RX","data",9.947355,0.00008225,0x02,
"U13C_USART1_RX","data",9.94744175,0.00008225,0x00,
"U13C_USART1_RX","data",9.9475285,0.00008225,0x4F,
"U13C_USART1_RX","data",9.947615,0.00008225,0x09,
"U13C_USART1_RX","data",9.94770175,0.00008225,0x00,
"U13C_USART1_RX","data",9.9477885,0.00008225,0xC4,
"U13C_USART1_RX","data",9.94787525,0.00008225,0x00,
"U13C_USART1_TX","data",9.94798825,0.00008225,0xD5,
"U13C_USART1_TX","data",9.94809175,0.00008225,0xE5,
"U13C_USART1_TX","data",9.9481795,0.00008225,0x00,
"U13C_USART1_TX","data",9.948279,0.00008225,0x09,
"U13C_USART1_TX","data",9.94836675,0.00008225,0x02,
"U13C_USART1_TX","data",9.9484665,0.00008225,0x10,
"U13C_USART1_TX","data",9.94855375,0.00008225,0x63,
"U13C_USART1_TX","data",9.94865375,0.00008225,0x00,
"U13C_USART1_TX","data",9.9487415,0.00008225,0x00,
"U13C_USART1_TX","data",9.94884125,0.00008225,0x46,
"U13C_USART1_TX","data",9.9489285,0.00008225,0x02,
"U13C_USART1_RX","data",10.11206925,0.00008225,0xD5,
"U13C_USART1_RX","data",10.112156,0.00008225,0xE5,
"U13C_USART1_RX","data",10.11224275,0.00008225,0x00,
"U13C_USART1_RX","data",10.1123295,0.00008225,0x00,
"U13C_USART1_RX","data",10.112416,0.00008225,0x02,
"U13C_USART1_RX","data",10.11250275,0.00008225,0x00,
"U13C_USART1_RX","data",10.1125895,0.00008225,0x4F,
"U13C_USART1_RX","data",10.11267625,0.00008225,0x09,
"U13C_USART1_RX","data",10.11276275,0.00008225,0x00,
"U13C_USART1_RX","data",10.1128495,0.00008225,0xC4,
"U13C_USART1_RX","data",10.11293625,0.00008225,0x00,
"U13C_USART1_TX","data",10.1130605,0.00008225,0xD5,
"U13C_USART1_TX","data",10.113148,0.00008225,0xE5,
"U13C_USART1_TX","data",10.11323525,0.00008225,0x00,
"U13C_USART1_TX","data",10.113323,0.00008225,0x07,
"U13C_USART1_TX","data",10.11342325,0.00008225,0x02,
"U13C_USART1_TX","data",10.113511,0.00008225,0x20,
"U13C_USART1_TX","data",10.1136105,0.00008225,0x76,
"U13C_USART1_TX","data",10.11369825,0.00008225,0x01,
"U13C_USART1_TX","data",10.1137985,0.00008225,0x00,
"U13C_USART1_TX","data",10.11388625,0.00008225,0x4A,
"U13C_USART1_TX","data",10.1139865,0.00008225,0x02,
"U13C_USART1_RX","data",10.27713475,0.00008225,0xD5,
"U13C_USART1_RX","data",10.2772215,0.00008225,0xE5,
"U13C_USART1_RX","data",10.27730825,0.00008225,0x00,
"U13C_USART1_RX","data",10.277395,0.00008225,0x00,
"U13C_USART1_RX","data",10.2774815,0.00008225,0x02,
"U13C_USART1_RX","data",10.27756825,0.00008225,0x00,
"U13C_USART1_RX","data",10.277655,0.00008225,0x4F,
"U13C_USART1_RX","data",10.27774175,0.00008225,0x09,
"U13C_USART1_RX","data",10.2778285,0.00008225,0x00,
"U13C_USART1_RX","data",10.277915,0.00008225,0xC4,
"U13C_USART1_RX","data",10.27800175,0.00008225,0x00,
"U13C_USART1_TX","data",10.278108,0.00008225,0xD5,
"U13C_USART1_TX","data",10.27819575,0.00008225,0xE5,
"U13C_USART1_TX","data",10.2782835,0.00008225,0x00,
"U13C_USART1_TX","data",10.27837675,0.00008225,0x04,
"U13C_USART1_TX","data",10.2784645,0.00008225,0x02,
"U13C_USART1_TX","data",10.2785635,0.00008225,0xBB,
"U13C_USART1_TX","data",10.27865075,0.00008225,0x59,
"U13C_USART1_TX","data",10.2787515,0.00008225,0x01,
"U13C_USART1_TX","data",10.27883925,0.00008225,0x00,
"U13C_USART1_TX","data",10.27893875,0.00008225,0x15,
"U13C_USART1_TX","data",10.2790265,0.00008225,0x02,
"U13C_USART1_RX","data",10.442196,0.00008225,0xD5,
"U13C_USART1_RX","data",10.4422825,0.00008225,0xE5,
"U13C_USART1_RX","data",10.44236925,0.00008225,0x00,
